! -._.-°-> CIME Nanotech <-°°-._.- 
! Mon Jan 18 09:39:11 2021
! Freq[Hz] 	 S11[re] 	 S11[im] 		 S21[re] 	 S21[im] 		 S12[re] 	 S12[im] 		 S22[re] 	 S22[im] 
#  HZ   S   RI   R     50.00 
1.00000000000E+008    9.865391E-001   -1.809749E-001    2.107004E-004    1.311818E-003    2.829916E-004    1.304871E-003    9.875644E-001   -1.771590E-001
1.06125000000E+008    9.850669E-001   -1.918161E-001    2.456182E-004    1.405332E-003    1.818250E-004    1.360041E-003    9.852266E-001   -1.868638E-001
1.12250000000E+008    9.823759E-001   -2.030174E-001    2.847686E-004    1.518239E-003    2.804830E-004    1.481615E-003    9.830654E-001   -1.979659E-001
1.18375000000E+008    9.798508E-001   -2.148266E-001    3.698918E-004    1.620351E-003    3.378498E-004    1.551075E-003    9.815676E-001   -2.082806E-001
1.24500000000E+008    9.774328E-001   -2.263800E-001    3.026139E-004    1.517989E-003    3.421859E-004    1.672915E-003    9.783221E-001   -2.197132E-001
1.30625000000E+008    9.746656E-001   -2.374069E-001    4.414000E-004    1.715022E-003    4.408688E-004    1.657035E-003    9.756287E-001   -2.302691E-001
1.36750000000E+008    9.711123E-001   -2.495306E-001    4.260170E-004    1.695128E-003    4.463673E-004    1.798918E-003    9.721552E-001   -2.409407E-001
1.42875000000E+008    9.682512E-001   -2.597258E-001    5.366211E-004    1.942526E-003    3.888006E-004    1.894238E-003    9.705450E-001   -2.510695E-001
1.49000000000E+008    9.660743E-001   -2.721862E-001    5.082061E-004    1.927979E-003    4.241251E-004    1.877659E-003    9.671552E-001   -2.610361E-001
1.55125000000E+008    9.628277E-001   -2.831494E-001    5.377891E-004    2.093332E-003    4.939346E-004    1.974019E-003    9.637755E-001   -2.706067E-001
1.61250000000E+008    9.582821E-001   -2.946761E-001    6.384323E-004    1.971087E-003    6.985485E-004    1.994088E-003    9.608902E-001   -2.828297E-001
1.67375000000E+008    9.558159E-001   -3.052745E-001    5.537301E-004    2.120614E-003    6.566638E-004    2.185197E-003    9.581746E-001   -2.929868E-001
1.73500000000E+008    9.515420E-001   -3.162771E-001    9.359985E-004    2.234607E-003    7.559765E-004    2.168568E-003    9.553458E-001   -3.047451E-001
1.79625000000E+008    9.491998E-001   -3.272413E-001    7.775080E-004    2.355611E-003    8.435579E-004    2.262716E-003    9.519119E-001   -3.147003E-001
1.85750000000E+008    9.452966E-001   -3.368337E-001    9.366678E-004    2.346739E-003    8.306804E-004    2.345524E-003    9.489760E-001   -3.257214E-001
1.91875000000E+008    9.412430E-001   -3.474898E-001    9.717383E-004    2.477897E-003    9.654988E-004    2.365443E-003    9.442319E-001   -3.373075E-001
1.98000000000E+008    9.382231E-001   -3.592088E-001    1.004744E-003    2.496067E-003    8.690616E-004    2.503317E-003    9.399005E-001   -3.471406E-001
2.04125000000E+008    9.347619E-001   -3.707070E-001    9.792731E-004    2.587602E-003    1.130497E-003    2.628410E-003    9.373869E-001   -3.559426E-001
2.10250000000E+008    9.298275E-001   -3.816864E-001    1.026582E-003    2.665540E-003    1.053562E-003    2.609675E-003    9.324786E-001   -3.667029E-001
2.16375000000E+008    9.253507E-001   -3.916709E-001    1.001091E-003    2.804465E-003    1.157076E-003    2.777408E-003    9.293924E-001   -3.772411E-001
2.22500000000E+008    9.211022E-001   -4.011081E-001    1.361696E-003    2.896768E-003    1.208270E-003    2.768967E-003    9.253086E-001   -3.875740E-001
2.28625000000E+008    9.158240E-001   -4.115945E-001    1.319516E-003    2.808289E-003    1.244920E-003    2.733412E-003    9.208386E-001   -3.981939E-001
2.34750000000E+008    9.113338E-001   -4.223972E-001    1.320503E-003    2.722615E-003    1.242790E-003    2.935228E-003    9.173667E-001   -4.081902E-001
2.40875000000E+008    9.064302E-001   -4.319325E-001    1.384545E-003    2.968800E-003    1.399619E-003    3.070405E-003    9.122736E-001   -4.192011E-001
2.47000000000E+008    9.016840E-001   -4.427386E-001    1.476725E-003    3.025064E-003    1.395103E-003    3.095614E-003    9.081571E-001   -4.284046E-001
2.53125000000E+008    8.969851E-001   -4.528209E-001    1.540800E-003    3.115074E-003    1.609958E-003    3.070694E-003    9.025587E-001   -4.391487E-001
2.59250000000E+008    8.908595E-001   -4.634762E-001    1.550402E-003    3.138382E-003    1.571360E-003    3.151910E-003    8.991061E-001   -4.477137E-001
2.65375000000E+008    8.848751E-001   -4.721315E-001    1.718479E-003    3.109405E-003    1.654727E-003    3.204009E-003    8.927110E-001   -4.586293E-001
2.71500000000E+008    8.791030E-001   -4.830243E-001    1.842133E-003    3.376991E-003    1.763957E-003    3.188601E-003    8.887166E-001   -4.680210E-001
2.77625000000E+008    8.737982E-001   -4.925406E-001    1.867096E-003    3.191608E-003    1.817798E-003    3.371935E-003    8.836696E-001   -4.777482E-001
2.83750000000E+008    8.679733E-001   -5.033430E-001    1.821415E-003    3.265152E-003    1.877452E-003    3.431771E-003    8.784971E-001   -4.877553E-001
2.89875000000E+008    8.625505E-001   -5.128731E-001    1.992343E-003    3.474455E-003    1.995337E-003    3.363803E-003    8.732763E-001   -4.975544E-001
2.96000000000E+008    8.568938E-001   -5.232439E-001    2.079803E-003    3.511302E-003    1.997926E-003    3.433061E-003    8.679447E-001   -5.077263E-001
3.02125000000E+008    8.513716E-001   -5.328208E-001    2.060967E-003    3.552919E-003    2.163167E-003    3.356110E-003    8.618100E-001   -5.158332E-001
3.08250000000E+008    8.452494E-001   -5.419214E-001    2.113852E-003    3.623819E-003    2.197358E-003    3.454088E-003    8.568534E-001   -5.265063E-001
3.14375000000E+008    8.392453E-001   -5.520883E-001    2.337408E-003    3.567825E-003    2.393600E-003    3.657550E-003    8.501784E-001   -5.352935E-001
3.20500000000E+008    8.338330E-001   -5.611842E-001    2.478816E-003    3.721280E-003    2.411463E-003    3.615452E-003    8.452857E-001   -5.434204E-001
3.26625000000E+008    8.268470E-001   -5.707629E-001    2.473589E-003    3.727783E-003    2.427276E-003    3.747482E-003    8.389456E-001   -5.533361E-001
3.32750000000E+008    8.205431E-001   -5.806124E-001    2.594713E-003    3.738471E-003    2.649815E-003    3.644463E-003    8.332540E-001   -5.627373E-001
3.38875000000E+008    8.136785E-001   -5.903062E-001    2.734925E-003    3.830905E-003    2.681177E-003    3.861435E-003    8.279794E-001   -5.724607E-001
3.45000000000E+008    8.086410E-001   -5.999631E-001    2.931094E-003    3.905330E-003    2.669530E-003    3.776275E-003    8.200607E-001   -5.821020E-001
3.51125000000E+008    8.006489E-001   -6.091633E-001    2.920656E-003    3.969642E-003    2.839082E-003    3.870366E-003    8.149320E-001   -5.913463E-001
3.57250000000E+008    7.931874E-001   -6.191981E-001    2.940722E-003    3.911351E-003    3.018986E-003    3.983319E-003    8.082675E-001   -6.008834E-001
3.63375000000E+008    7.867752E-001   -6.277777E-001    3.130333E-003    4.087459E-003    3.169594E-003    3.967837E-003    8.002630E-001   -6.093974E-001
3.69500000000E+008    7.786793E-001   -6.361735E-001    3.255648E-003    3.962522E-003    3.210135E-003    4.005369E-003    7.927666E-001   -6.182387E-001
3.75625000000E+008    7.713372E-001   -6.449417E-001    3.320138E-003    3.971127E-003    3.309809E-003    3.951686E-003    7.855099E-001   -6.275330E-001
3.81750000000E+008    7.632812E-001   -6.539109E-001    3.329091E-003    4.075714E-003    3.384034E-003    4.020107E-003    7.775032E-001   -6.355769E-001
3.87875000000E+008    7.558717E-001   -6.626127E-001    3.513615E-003    4.138984E-003    3.485976E-003    3.997861E-003    7.702517E-001   -6.439998E-001
3.94000000000E+008    7.481933E-001   -6.708703E-001    3.554906E-003    4.051500E-003    3.604008E-003    4.043875E-003    7.613620E-001   -6.532848E-001
4.00125000000E+008    7.391334E-001   -6.800249E-001    3.762444E-003    4.210124E-003    3.651715E-003    4.054965E-003    7.536399E-001   -6.608735E-001
4.06250000000E+008    7.317684E-001   -6.887458E-001    3.804545E-003    4.057095E-003    3.775398E-003    4.090934E-003    7.454225E-001   -6.695036E-001
4.12375000000E+008    7.229159E-001   -6.966719E-001    3.997000E-003    4.109329E-003    3.915341E-003    4.132377E-003    7.381637E-001   -6.790087E-001
4.18500000000E+008    7.146311E-001   -7.064633E-001    4.076527E-003    4.186378E-003    4.041684E-003    4.131123E-003    7.291810E-001   -6.870601E-001
4.24625000000E+008    7.051936E-001   -7.138035E-001    4.121962E-003    4.236507E-003    4.189738E-003    4.111728E-003    7.214592E-001   -6.952400E-001
4.30750000000E+008    6.966975E-001   -7.214307E-001    4.274285E-003    4.139699E-003    4.245521E-003    4.167117E-003    7.137213E-001   -7.033386E-001
4.36875000000E+008    6.879841E-001   -7.299359E-001    4.423062E-003    4.329412E-003    4.357513E-003    4.168550E-003    7.057180E-001   -7.110255E-001
4.43000000000E+008    6.807665E-001   -7.378369E-001    4.495647E-003    4.272792E-003    4.466353E-003    4.273552E-003    6.981835E-001   -7.188467E-001
4.49125000000E+008    6.721401E-001   -7.452188E-001    4.681875E-003    4.241007E-003    4.641459E-003    4.213419E-003    6.906506E-001   -7.272030E-001
4.55250000000E+008    6.634103E-001   -7.531571E-001    4.828227E-003    4.301327E-003    4.824486E-003    4.239047E-003    6.838311E-001   -7.356019E-001
4.61375000000E+008    6.553062E-001   -7.610011E-001    4.859911E-003    4.321886E-003    4.956873E-003    4.107418E-003    6.761404E-001   -7.430010E-001
4.67500000000E+008    6.461686E-001   -7.684909E-001    5.043606E-003    4.336832E-003    5.058159E-003    4.185011E-003    6.676123E-001   -7.502769E-001
4.73625000000E+008    6.374786E-001   -7.761211E-001    5.102281E-003    4.342818E-003    5.103533E-003    4.145614E-003    6.593090E-001   -7.580927E-001
4.79750000000E+008    6.296883E-001   -7.838079E-001    5.160391E-003    4.088580E-003    5.288428E-003    4.163834E-003    6.512153E-001   -7.653983E-001
4.85875000000E+008    6.211513E-001   -7.904459E-001    5.457138E-003    4.140435E-003    5.262567E-003    4.111164E-003    6.432946E-001   -7.727135E-001
4.92000000000E+008    6.124250E-001   -7.972871E-001    5.372106E-003    4.365640E-003    5.493330E-003    4.077776E-003    6.353952E-001   -7.789744E-001
4.98125000000E+008    6.037494E-001   -8.044759E-001    5.575016E-003    4.448636E-003    5.480168E-003    4.152444E-003    6.260482E-001   -7.871199E-001
5.04250000000E+008    5.950887E-001   -8.119851E-001    5.514447E-003    4.159780E-003    5.684121E-003    4.355939E-003    6.180281E-001   -7.945035E-001
5.10375000000E+008    5.840774E-001   -8.194947E-001    5.827758E-003    4.059032E-003    5.794563E-003    4.085562E-003    6.079461E-001   -8.014107E-001
5.16500000000E+008    5.745645E-001   -8.255208E-001    5.919093E-003    4.211791E-003    5.963095E-003    4.234042E-003    5.998338E-001   -8.075873E-001
5.22625000000E+008    5.651603E-001   -8.331937E-001    5.903581E-003    4.123113E-003    6.092548E-003    4.106138E-003    5.894164E-001   -8.147369E-001
5.28750000000E+008    5.558079E-001   -8.399122E-001    6.087072E-003    4.241635E-003    6.327545E-003    4.031499E-003    5.808024E-001   -8.221703E-001
5.34875000000E+008    5.453821E-001   -8.450489E-001    6.295740E-003    4.240834E-003    6.333359E-003    4.119906E-003    5.703072E-001   -8.281220E-001
5.41000000000E+008    5.354556E-001   -8.518391E-001    6.517601E-003    4.320367E-003    6.388957E-003    4.074703E-003    5.600618E-001   -8.336058E-001
5.47125000000E+008    5.241479E-001   -8.579048E-001    6.514195E-003    4.270894E-003    6.680771E-003    3.958803E-003    5.504000E-001   -8.392934E-001
5.53250000000E+008    5.133123E-001   -8.636327E-001    6.711319E-003    4.084780E-003    6.339853E-003    3.934741E-003    5.401157E-001   -8.456672E-001
5.59375000000E+008    5.037592E-001   -8.699288E-001    6.882714E-003    4.044623E-003    6.737342E-003    3.859944E-003    5.306098E-001   -8.502811E-001
5.65500000000E+008    4.928304E-001   -8.755792E-001    7.015886E-003    4.119861E-003    6.793295E-003    4.084832E-003    5.191481E-001   -8.574383E-001
5.71625000000E+008    4.820176E-001   -8.809676E-001    7.158667E-003    3.824384E-003    7.050777E-003    3.822305E-003    5.099620E-001   -8.630465E-001
5.77750000000E+008    4.702537E-001   -8.857203E-001    7.307115E-003    3.827845E-003    7.365978E-003    3.812640E-003    4.996629E-001   -8.678939E-001
5.83875000000E+008    4.591691E-001   -8.917992E-001    7.228275E-003    4.011867E-003    7.313258E-003    3.824238E-003    4.891141E-001   -8.745964E-001
5.90000000000E+008    4.477787E-001   -8.968271E-001    7.477621E-003    3.826187E-003    7.082876E-003    3.786562E-003    4.796081E-001   -8.784803E-001
5.96125000000E+008    4.380280E-001   -9.019095E-001    7.716181E-003    3.881223E-003    7.361904E-003    3.644312E-003    4.688009E-001   -8.845094E-001
6.02250000000E+008    4.274764E-001   -9.065051E-001    7.763823E-003    3.643023E-003    7.458271E-003    3.522752E-003    4.586788E-001   -8.897374E-001
6.08375000000E+008    4.173418E-001   -9.121470E-001    8.038453E-003    3.820851E-003    7.837613E-003    3.601594E-003    4.478631E-001   -8.955579E-001
6.14500000000E+008    4.055203E-001   -9.170240E-001    7.814393E-003    3.772176E-003    8.021967E-003    3.539538E-003    4.385040E-001   -9.010527E-001
6.20625000000E+008    3.959070E-001   -9.222620E-001    8.168356E-003    3.653831E-003    8.025827E-003    3.562718E-003    4.279436E-001   -9.049882E-001
6.26750000000E+008    3.866096E-001   -9.258413E-001    8.310987E-003    3.549130E-003    8.159583E-003    3.468950E-003    4.173176E-001   -9.115288E-001
6.32875000000E+008    3.754570E-001   -9.316217E-001    8.383537E-003    3.705401E-003    8.272560E-003    3.467472E-003    4.071229E-001   -9.166795E-001
6.39000000000E+008    3.638791E-001   -9.362170E-001    8.417957E-003    3.578089E-003    8.589140E-003    3.645822E-003    3.967426E-001   -9.213074E-001
6.45125000000E+008    3.540635E-001   -9.428524E-001    9.007989E-003    3.499929E-003    8.580869E-003    3.436303E-003    3.860411E-001   -9.272586E-001
6.51250000000E+008    3.435598E-001   -9.471307E-001    8.695873E-003    3.447987E-003    9.126131E-003    3.391514E-003    3.746792E-001   -9.296627E-001
6.57375000000E+008    3.329360E-001   -9.527850E-001    9.090445E-003    2.980935E-003    9.352538E-003    3.048509E-003    3.651878E-001   -9.360183E-001
6.63500000000E+008    3.219255E-001   -9.547682E-001    9.231074E-003    3.231819E-003    9.141725E-003    2.974074E-003    3.531016E-001   -9.396803E-001
6.69625000000E+008    3.101845E-001   -9.588761E-001    9.440289E-003    3.086202E-003    9.165577E-003    2.827046E-003    3.427729E-001   -9.437834E-001
6.75750000000E+008    2.995996E-001   -9.615571E-001    9.777462E-003    3.099005E-003    9.558515E-003    2.873076E-003    3.318248E-001   -9.474685E-001
6.81875000000E+008    2.877990E-001   -9.658793E-001    9.633926E-003    2.598971E-003    9.668574E-003    2.613655E-003    3.201188E-001   -9.534681E-001
6.88000000000E+008    2.757256E-001   -9.684249E-001    1.007288E-002    2.736222E-003    9.553316E-003    2.713617E-003    3.078113E-001   -9.563959E-001
6.94125000000E+008    2.634186E-001   -9.721937E-001    1.005897E-002    2.545458E-003    1.005137E-002    2.302561E-003    2.978753E-001   -9.597563E-001
7.00250000000E+008    2.531350E-001   -9.744899E-001    1.013464E-002    2.476900E-003    9.952364E-003    2.373164E-003    2.860513E-001   -9.647011E-001
7.06375000000E+008    2.405190E-001   -9.777899E-001    1.004122E-002    2.277114E-003    9.863024E-003    1.984187E-003    2.726235E-001   -9.670614E-001
7.12500000000E+008    2.275044E-001   -9.792632E-001    1.012767E-002    1.999742E-003    1.024550E-002    1.993831E-003    2.636397E-001   -9.691678E-001
7.18625000000E+008    2.166274E-001   -9.815542E-001    1.015287E-002    1.734591E-003    1.023240E-002    1.781455E-003    2.512868E-001   -9.716194E-001
7.24750000000E+008    2.044029E-001   -9.834060E-001    1.034254E-002    1.784163E-003    1.029736E-002    1.876910E-003    2.396723E-001   -9.735630E-001
7.30875000000E+008    1.907114E-001   -9.855530E-001    1.045398E-002    1.832607E-003    1.033909E-002    1.699142E-003    2.277201E-001   -9.756737E-001
7.37000000000E+008    1.784124E-001   -9.872095E-001    1.056307E-002    1.694265E-003    1.039541E-002    1.523606E-003    2.165196E-001   -9.781599E-001
7.43125000000E+008    1.660777E-001   -9.889481E-001    1.055154E-002    1.739522E-003    1.040215E-002    1.556565E-003    2.055769E-001   -9.809318E-001
7.49250000000E+008    1.551217E-001   -9.902848E-001    1.074878E-002    1.510682E-003    1.044489E-002    1.350747E-003    1.947267E-001   -9.831890E-001
7.55375000000E+008    1.420860E-001   -9.921806E-001    1.096899E-002    1.673863E-003    1.064211E-002    1.286492E-003    1.812110E-001   -9.859380E-001
7.61500000000E+008    1.308348E-001   -9.940838E-001    1.087289E-002    1.258439E-003    1.065987E-002    1.165629E-003    1.715349E-001   -9.873509E-001
7.67625000000E+008    1.203778E-001   -9.952284E-001    1.095997E-002    1.084672E-003    1.082350E-002    1.092663E-003    1.592279E-001   -9.880658E-001
7.73750000000E+008    1.074995E-001   -9.954218E-001    1.104757E-002    1.072807E-003    1.097719E-002    1.025152E-003    1.497758E-001   -9.904068E-001
7.79875000000E+008    9.555887E-002   -9.968973E-001    1.131825E-002    9.256102E-004    1.098214E-002    8.682411E-004    1.392676E-001   -9.912142E-001
7.86000000000E+008    8.430991E-002   -9.989195E-001    1.109750E-002    7.106955E-004    1.104232E-002    8.452014E-004    1.271696E-001   -9.940505E-001
7.92125000000E+008    7.251257E-002   -1.001009E+000    1.141598E-002    8.698424E-004    1.112019E-002    7.664029E-004    1.158272E-001   -9.952706E-001
7.98250000000E+008    6.036050E-002   -1.001229E+000    1.158610E-002    9.954758E-004    1.127320E-002    5.723544E-004    1.034088E-001   -9.958393E-001
8.04375000000E+008    4.853725E-002   -1.002315E+000    1.156040E-002    6.353517E-004    1.149932E-002    5.240837E-004    9.079428E-002   -9.965016E-001
8.10500000000E+008    3.759354E-002   -1.003435E+000    1.167980E-002    5.063900E-004    1.159613E-002    4.980132E-004    7.838324E-002   -9.979751E-001
8.16625000000E+008    2.469112E-002   -1.003982E+000    1.186719E-002    3.907484E-004    1.179012E-002    2.457891E-004    6.572331E-002   -9.986863E-001
8.22750000000E+008    1.246090E-002   -1.005317E+000    1.215576E-002    4.011185E-005    1.186483E-002    8.017067E-005    5.321416E-002   -9.999215E-001
8.28875000000E+008    8.689112E-004   -1.005207E+000    1.220048E-002    2.968612E-005    1.197241E-002   -1.233071E-004    3.965930E-002   -9.993789E-001
8.35000000000E+008   -1.299688E-002   -1.005645E+000    1.214205E-002   -3.168946E-004    1.209168E-002   -2.159774E-004    2.809459E-002   -9.992061E-001
8.41125000000E+008   -2.517523E-002   -1.004329E+000    1.250201E-002   -5.464871E-004    1.230708E-002   -3.172176E-004    1.433249E-002   -1.000400E+000
8.47250000000E+008   -3.764094E-002   -1.003849E+000    1.245807E-002   -4.923621E-004    1.224035E-002   -5.544676E-004    1.403871E-003   -9.996117E-001
8.53375000000E+008   -5.085546E-002   -1.004218E+000    1.253343E-002   -7.235496E-004    1.256060E-002   -7.381476E-004   -1.214497E-002   -9.988853E-001
8.59500000000E+008   -6.490901E-002   -1.003010E+000    1.265122E-002   -9.678414E-004    1.266667E-002   -1.075261E-003   -2.711343E-002   -9.998930E-001
8.65625000000E+008   -7.867660E-002   -1.002023E+000    1.268459E-002   -1.019104E-003    1.268360E-002   -1.292343E-003   -3.900555E-002   -1.000080E+000
